
T4218 000:079 SEGGER J-Link V6.16c Log File (0001ms, 0026ms total)
T4218 000:079 DLL Compiled: Jun 16 2017 18:14:49 (0001ms, 0026ms total)
T4218 000:079 Logging started @ 2023-08-27 11:31 (0001ms, 0026ms total)
T4218 000:080 JLINK_SetWarnOutHandler(...) (0000ms, 0026ms total)
T4218 000:080 JLINK_OpenEx(...)
Firmware: J-Link ARM-OB STM32 compiled Aug 22 2012 19:52:04
Hardware: V7.00
S/N: 20090928
Feature(s): RDI,FlashDL,FlashBP,JFlash,GDBWEBSRV Webserver running on local port 19080 (0016ms, 0042ms total)
T4218 000:080   returns O.K. (0016ms, 0042ms total)
T4218 000:096 JLINK_GetEmuCaps()  returns 0x88EA5833 (0000ms, 0042ms total)
T4218 000:096 JLINK_TIF_GetAvailable(...) (0000ms, 0042ms total)
T4218 000:096 JLINK_SetErrorOutHandler(...) (0000ms, 0042ms total)
T4218 000:096 JLINK_ExecCommand("ProjectFile = "D:\Work\keil\32\MY_Lib\SofWare_IIC\JLinkSettings.ini"", ...).   returns 0x00 (0080ms, 0122ms total)
T4218 000:177 JLINK_ExecCommand("Device = STM32F103RC", ...). Device "STM32F103RC" selected.  returns 0x00 (0001ms, 0123ms total)
T4218 000:178 JLINK_ExecCommand("DisableConnectionTimeout", ...).   returns 0x01 (0000ms, 0123ms total)
T4218 000:178 JLINK_GetHardwareVersion()  returns 0x11170 (0000ms, 0123ms total)
T4218 000:178 JLINK_GetDLLVersion()  returns 61603 (0000ms, 0123ms total)
T4218 000:178 JLINK_GetFirmwareString(...) (0000ms, 0123ms total)
T4218 000:178 JLINK_GetDLLVersion()  returns 61603 (0000ms, 0123ms total)
T4218 000:178 JLINK_GetCompileDateTime() (0000ms, 0123ms total)
T4218 000:178 JLINK_GetFirmwareString(...) (0000ms, 0123ms total)
T4218 000:178 JLINK_GetHardwareVersion()  returns 0x11170 (0000ms, 0123ms total)
T4218 000:178 JLINK_TIF_Select(JLINKARM_TIF_SWD)  returns 0x00 (0002ms, 0125ms total)
T4218 000:180 JLINK_SetSpeed(5000) (0000ms, 0125ms total)
T4218 000:180 JLINK_GetId() >0x10B TIF>Found SW-DP with ID 0x1BA01477 >0x0D TIF> >0x28 TIF> >0x0D TIF> >0x28 TIF> >0x0D TIF> >0x28 TIF> >0x0D TIF> >0x28 TIF> >0x0D TIF> >0x21 TIF> >0x0D TIF> >0x28 TIF> >0x0D TIF> >0x28 TIF> >0x0D TIF> >0x28 TIF> >0x0D TIF> >0x21 TIF> >0x0D TIF> >0x21 TIF> >0x0D TIF> >0x28 TIF> >0x0D TIF> >0x21 TIF> >0x0D TIF> >0x21 TIF> >0x0D TIF> >0x28 TIF> >0x0D TIF> >0x21 TIF> >0x0D TIF> >0x21 TIF> >0x0D TIF> >0x28 TIF> >0x0D TIF> >0x21 TIF> >0x0D TIF> >0x21 TIF> >0x0D TIF> >0x28 TIF>
 >0x0D TIF> >0x21 TIF> >0x0D TIF> >0x21 TIF> >0x0D TIF> >0x28 TIF> >0x0D TIF> >0x21 TIF> >0x0D TIF> >0x21 TIF> >0x0D TIF> >0x28 TIF> >0x0D TIF> >0x21 TIF> >0x0D TIF> >0x21 TIF> >0x10B TIF>Found SW-DP with ID 0x1BA01477 >0x0D TIF> >0x28 TIF> >0x0D TIF> >0x28 TIF> >0x0D TIF> >0x28 TIF> >0x0D TIF> >0x28 TIF> >0x0D TIF> >0x21 TIF> >0x0D TIF> >0x28 TIF>Scanning APs, stopping at first AHB-AP found. >0x0D TIF> >0x28 TIF> >0x0D TIF> >0x21 TIF> >0x0D TIF> >0x21 TIF>AP[0] IDR: 0x14770011 (AHB-AP) >0x0D TIF>
 >0x28 TIF> >0x0D TIF> >0x21 TIF> >0x0D TIF> >0x21 TIF>AHB-AP ROM: 0xE00FF000 (Base addr. of first ROM table) >0x0D TIF> >0x28 TIF> >0x0D TIF> >0x28 TIF> >0x0D TIF> >0x28 TIF> >0x0D TIF> >0x21 TIF> >0x0D TIF> >0x21 TIF> >0x0D TIF> >0x28 TIF> >0x0D TIF> >0x21 TIF> >0x0D TIF> >0x21 TIF>CPUID reg: 0x411FC231. Implementer code: 0x41 (ARM)Found Cortex-M3 r1p1, Little endian. -- CPU_ReadMem(4 bytes @ 0xE000EDF0) -- CPU_WriteMem(4 bytes @ 0xE000EDF0) -- CPU_ReadMem(4 bytes @ 0xE0002000)
FPUnit: 6 code (BP) slots and 2 literal slots -- CPU_ReadMem(4 bytes @ 0xE000EDFC) -- CPU_WriteMem(4 bytes @ 0xE000EDFC) -- CPU_ReadMem(4 bytes @ 0xE0001000) -- CPU_WriteMem(4 bytes @ 0xE0001000) -- CPU_ReadMem(4 bytes @ 0xE000ED88) -- CPU_WriteMem(4 bytes @ 0xE000ED88) -- CPU_ReadMem(4 bytes @ 0xE000ED88) -- CPU_WriteMem(4 bytes @ 0xE000ED88)CoreSight components:ROMTbl[0] @ E00FF000 -- CPU_ReadMem(16 bytes @ 0xE00FF000) -- CPU_ReadMem(16 bytes @ 0xE000EFF0) -- CPU_ReadMem(16 bytes @ 0xE000EFE0)
ROMTbl[0][0]: E000E000, CID: B105E00D, PID: 001BB000 SCS -- CPU_ReadMem(16 bytes @ 0xE0001FF0) -- CPU_ReadMem(16 bytes @ 0xE0001FE0)ROMTbl[0][1]: E0001000, CID: B105E00D, PID: 001BB002 DWT -- CPU_ReadMem(16 bytes @ 0xE0002FF0) -- CPU_ReadMem(16 bytes @ 0xE0002FE0)ROMTbl[0][2]: E0002000, CID: B105E00D, PID: 000BB003 FPB -- CPU_ReadMem(16 bytes @ 0xE0000FF0) -- CPU_ReadMem(16 bytes @ 0xE0000FE0)ROMTbl[0][3]: E0000000, CID: B105E00D, PID: 001BB001 ITM -- CPU_ReadMem(16 bytes @ 0xE00FF010)
 -- CPU_ReadMem(16 bytes @ 0xE0040FF0) -- CPU_ReadMem(16 bytes @ 0xE0040FE0)ROMTbl[0][4]: E0040000, CID: B105900D, PID: 001BB923 TPIU-Lite -- CPU_ReadMem(16 bytes @ 0xE0041FF0) -- CPU_ReadMem(16 bytes @ 0xE0041FE0)ROMTbl[0][5]: E0041000, CID: B105900D, PID: 101BB924 ETM-M3 >0x0D TIF> >0x21 TIF>  returns 0x1BA01477 (0072ms, 0197ms total)
T4218 000:252 JLINK_GetDLLVersion()  returns 61603 (0000ms, 0197ms total)
T4218 000:252 JLINK_CORE_GetFound()  returns 0x30000FF (0000ms, 0197ms total)
T4218 000:252 JLINK_GetDebugInfo(0x100 = JLINKARM_ROM_TABLE_ADDR_INDEX) -- Value=0xE00FF000  returns 0x00 (0000ms, 0197ms total)
T4218 000:252 JLINK_GetDebugInfo(0x100 = JLINKARM_ROM_TABLE_ADDR_INDEX) -- Value=0xE00FF000  returns 0x00 (0000ms, 0197ms total)
T4218 000:252 JLINK_GetDebugInfo(0x101 = JLINKARM_DEBUG_INFO_ETM_ADDR_INDEX) -- Value=0xE0041000  returns 0x00 (0000ms, 0197ms total)
T4218 000:252 JLINK_ReadMemEx(0xE0041FD0, 0x0020 Bytes, ..., Flags = 0x02000004) -- CPU_ReadMem(32 bytes @ 0xE0041FD0) - Data: 04 00 00 00 00 00 00 00 00 00 00 00 00 00 00 00 ...  returns 0x20 (0001ms, 0198ms total)
T4218 000:253 JLINK_GetDebugInfo(0x102 = JLINKARM_DEBUG_INFO_MTB_ADDR_INDEX) -- Value=0x00000000  returns 0x00 (0000ms, 0198ms total)
T4218 000:253 JLINK_GetDebugInfo(0x103 = JLINKARM_DEBUG_INFO_TPIU_ADDR_INDEX) -- Value=0xE0040000  returns 0x00 (0000ms, 0198ms total)
T4218 000:253 JLINK_GetDebugInfo(0x104 = JLINKARM_DEBUG_INFO_ITM_ADDR_INDEX) -- Value=0xE0000000  returns 0x00 (0000ms, 0198ms total)
T4218 000:253 JLINK_GetDebugInfo(0x105 = JLINKARM_DEBUG_INFO_DWT_ADDR_INDEX) -- Value=0xE0001000  returns 0x00 (0000ms, 0198ms total)
T4218 000:253 JLINK_GetDebugInfo(0x106 = JLINKARM_DEBUG_INFO_FPB_ADDR_INDEX) -- Value=0xE0002000  returns 0x00 (0000ms, 0198ms total)
T4218 000:253 JLINK_GetDebugInfo(0x107 = JLINKARM_DEBUG_INFO_NVIC_ADDR_INDEX) -- Value=0xE000E000  returns 0x00 (0000ms, 0198ms total)
T4218 000:253 JLINK_GetDebugInfo(0x10C = JLINKARM_DEBUG_INFO_DBG_ADDR_INDEX) -- Value=0xE000EDF0  returns 0x00 (0000ms, 0198ms total)
T4218 000:253 JLINK_ReadMemU32(0xE000ED00, 0x0001 Items, ...) -- CPU_ReadMem(4 bytes @ 0xE000ED00) - Data: 31 C2 1F 41  returns 0x01 (0001ms, 0199ms total)
T4218 000:254 JLINK_GetDebugInfo(0x10F = JLINKARM_DEBUG_INFO_HAS_CORTEX_M_SECURITY_EXT_INDEX) -- Value=0x00000000  returns 0x00 (0000ms, 0199ms total)
T4218 000:254 JLINK_SetResetType(JLINKARM_CM3_RESET_TYPE_NORMAL)  returns JLINKARM_CM3_RESET_TYPE_NORMAL (0000ms, 0199ms total)
T4218 000:254 JLINK_Reset() -- CPU is running -- CPU_WriteMem(4 bytes @ 0xE000EDF0) -- CPU is running -- CPU_WriteMem(4 bytes @ 0xE000EDFC) >0x35 TIF>Setting AIRCR.SYSRESETREQ -- CPU is running -- CPU_WriteMem(4 bytes @ 0xE000ED0C) >0x0D TIF> >0x28 TIF> -- CPU_ReadMem(4 bytes @ 0xE000ED0C) -- CPU_ReadMem(4 bytes @ 0xE000EDF0) -- CPU_ReadMem(4 bytes @ 0xE000EDF0) -- CPU_ReadMem(4 bytes @ 0xE000EDF0) -- CPU is running -- CPU_WriteMem(4 bytes @ 0xE000EDF0) -- CPU is running
 -- CPU_WriteMem(4 bytes @ 0xE000EDFC) -- CPU_ReadMem(4 bytes @ 0xE000EDF0) -- CPU_WriteMem(4 bytes @ 0xE0002000) -- CPU_ReadMem(4 bytes @ 0xE000EDFC) -- CPU_ReadMem(4 bytes @ 0xE0001000) (0076ms, 0275ms total)
T4218 000:330 JLINK_ReadReg(R15 (PC))  returns 0x08000188 (0000ms, 0275ms total)
T4218 000:330 JLINK_ReadReg(XPSR)  returns 0x01000000 (0000ms, 0275ms total)
T4218 000:330 JLINK_Halt()  returns 0x00 (0000ms, 0275ms total)
T4218 000:330 JLINK_ReadMemU32(0xE000EDF0, 0x0001 Items, ...) -- CPU_ReadMem(4 bytes @ 0xE000EDF0) - Data: 03 00 03 00  returns 0x01 (0001ms, 0276ms total)
T4218 000:331 JLINK_WriteU32(0xE000EDF0, 0xA05F0003) -- CPU_WriteMem(4 bytes @ 0xE000EDF0)  returns 0x00 (0001ms, 0277ms total)
T4218 000:332 JLINK_WriteU32(0xE000EDFC, 0x01000000) -- CPU_WriteMem(4 bytes @ 0xE000EDFC)  returns 0x00 (0000ms, 0277ms total)
T4218 000:332 JLINK_GetHWStatus(...)  returns 0x00 (0001ms, 0278ms total)
T4218 000:333 JLINK_GetNumBPUnits(Type = 0xFFFFFF00)  returns 0x06 (0000ms, 0278ms total)
T4218 000:333 JLINK_GetNumBPUnits(Type = 0xF0)  returns 0x2000 (0000ms, 0278ms total)
T4218 000:333 JLINK_GetNumWPUnits()  returns 0x04 (0000ms, 0278ms total)
T4218 000:333 JLINK_GetSpeed()  returns 0xFA0 (0000ms, 0278ms total)
T4218 000:333 JLINK_ReadMemU32(0xE000E004, 0x0001 Items, ...) -- CPU_ReadMem(4 bytes @ 0xE000E004) - Data: 01 00 00 00  returns 0x01 (0001ms, 0279ms total)
T4218 000:334 JLINK_ReadMemU32(0xE000E004, 0x0001 Items, ...) -- CPU_ReadMem(4 bytes @ 0xE000E004) - Data: 01 00 00 00  returns 0x01 (0000ms, 0279ms total)
T4218 000:334 JLINK_WriteMemEx(0xE0001000, 0x001C Bytes, ..., Flags = 0x02000004) - Data: 01 00 00 00 00 00 00 00 00 00 00 00 00 00 00 00 ... -- CPU_WriteMem(28 bytes @ 0xE0001000)  returns 0x1C (0002ms, 0281ms total)
T4218 000:336 JLINK_ReadReg(R15 (PC))  returns 0x08000188 (0000ms, 0281ms total)
T4218 000:336 JLINK_ReadReg(XPSR)  returns 0x01000000 (0000ms, 0281ms total)
T4218 000:407 JLINK_SetResetType(JLINKARM_CM3_RESET_TYPE_NORMAL)  returns JLINKARM_CM3_RESET_TYPE_NORMAL (0001ms, 0282ms total)
T4218 000:408 JLINK_Reset() -- CPU_WriteMem(4 bytes @ 0xE000EDF0) -- CPU_WriteMem(4 bytes @ 0xE000EDFC) >0x35 TIF>Setting AIRCR.SYSRESETREQ -- CPU_WriteMem(4 bytes @ 0xE000ED0C) >0x0D TIF> >0x28 TIF> -- CPU_ReadMem(4 bytes @ 0xE000ED0C) -- CPU_ReadMem(4 bytes @ 0xE000EDF0) -- CPU_ReadMem(4 bytes @ 0xE000EDF0) -- CPU_ReadMem(4 bytes @ 0xE000EDF0) -- CPU_WriteMem(4 bytes @ 0xE000EDF0) -- CPU_WriteMem(4 bytes @ 0xE000EDFC) -- CPU_ReadMem(4 bytes @ 0xE000EDF0) -- CPU_WriteMem(4 bytes @ 0xE0002000)
 -- CPU_ReadMem(4 bytes @ 0xE000EDFC) -- CPU_ReadMem(4 bytes @ 0xE0001000) (0078ms, 0360ms total)
T4218 000:486 JLINK_ReadReg(R15 (PC))  returns 0x08000188 (0000ms, 0360ms total)
T4218 000:486 JLINK_ReadReg(XPSR)  returns 0x01000000 (0000ms, 0360ms total)
T4218 000:487 JLINK_ReadMemEx(0x080000EC, 0x003C Bytes, ..., Flags = 0x02000000) -- CPU_ReadMem(128 bytes @ 0x080000C0) -- Updating C cache (128 bytes @ 0x080000C0) -- Read from C cache (60 bytes @ 0x080000EC) - Data: 00 F0 02 F8 00 F0 3A F8 0A A0 90 E8 00 0C 82 44 ...  returns 0x3C (0002ms, 0362ms total)
T4218 000:489 JLINK_ReadMemEx(0x08000128, 0x003C Bytes, ..., Flags = 0x02000000) -- CPU_ReadMem(64 bytes @ 0x08000140) -- Updating C cache (64 bytes @ 0x08000140) -- Read from C cache (60 bytes @ 0x08000128) - Data: 10 3A 24 BF 78 C8 78 C1 FA D8 52 07 24 BF 30 C8 ...  returns 0x3C (0002ms, 0364ms total)
T4218 000:491 JLINK_ReadMemEx(0x08000164, 0x003C Bytes, ..., Flags = 0x02000000) -- CPU_ReadMem(64 bytes @ 0x08000180) -- Updating C cache (64 bytes @ 0x08000180) -- Read from C cache (60 bytes @ 0x08000164) - Data: 10 B5 10 BD 00 F0 31 F8 11 46 FF F7 F7 FF 00 F0 ...  returns 0x3C (0002ms, 0366ms total)
T4218 000:662 JLINK_ReadMemEx(0x40010800, 0x000C Bytes, ..., Flags = 0x02000004) -- CPU_ReadMem(12 bytes @ 0x40010800) - Data: 44 44 44 44 44 44 84 88 00 00 00 00  returns 0x0C (0001ms, 0367ms total)
T4218 000:663 JLINK_ReadMemEx(0x40010800, 0x0004 Bytes, ..., Flags = 0x02000004) -- CPU_ReadMem(4 bytes @ 0x40010800) - Data: 44 44 44 44  returns 0x04 (0000ms, 0367ms total)
T4218 000:663 JLINK_ReadMemEx(0x40010804, 0x0004 Bytes, ..., Flags = 0x02000004) -- CPU_ReadMem(4 bytes @ 0x40010804) - Data: 44 44 84 88  returns 0x04 (0001ms, 0368ms total)
T4218 000:664 JLINK_ReadMemEx(0x40010808, 0x0004 Bytes, ..., Flags = 0x02000004) -- CPU_ReadMem(4 bytes @ 0x40010808) - Data: 00 00 00 00  returns 0x04 (0001ms, 0369ms total)
T4218 000:665 JLINK_ReadMemEx(0x4001080C, 0x0004 Bytes, ..., Flags = 0x02000004) -- CPU_ReadMem(4 bytes @ 0x4001080C) - Data: 00 A0 00 00  returns 0x04 (0001ms, 0370ms total)
T4218 000:666 JLINK_ReadMemEx(0x4001080C, 0x0004 Bytes, ..., Flags = 0x02000004) -- CPU_ReadMem(4 bytes @ 0x4001080C) - Data: 00 A0 00 00  returns 0x04 (0001ms, 0371ms total)
T4218 000:667 JLINK_ReadMemEx(0x40010818, 0x0004 Bytes, ..., Flags = 0x02000004) -- CPU_ReadMem(4 bytes @ 0x40010818) - Data: 00 00 00 00  returns 0x04 (0001ms, 0372ms total)
T4218 000:668 JLINK_ReadMemEx(0x40010818, 0x0004 Bytes, ..., Flags = 0x02000004) -- CPU_ReadMem(4 bytes @ 0x40010818) - Data: 00 00 00 00  returns 0x04 (0000ms, 0372ms total)
T4218 002:334 JLINK_ReadReg(R0)  returns 0x40013800 (0001ms, 0373ms total)
T4218 002:335 JLINK_ReadReg(R1)  returns 0x00000080 (0000ms, 0373ms total)
T4218 002:335 JLINK_ReadReg(R2)  returns 0x40013800 (0000ms, 0373ms total)
T4218 002:335 JLINK_ReadReg(R3)  returns 0x00000000 (0000ms, 0373ms total)
T4218 002:335 JLINK_ReadReg(R4)  returns 0x00000000 (0000ms, 0373ms total)
T4218 002:335 JLINK_ReadReg(R5)  returns 0x20000014 (0000ms, 0373ms total)
T4218 002:335 JLINK_ReadReg(R6)  returns 0x00000000 (0000ms, 0373ms total)
T4218 002:335 JLINK_ReadReg(R7)  returns 0x00000000 (0000ms, 0373ms total)
T4218 002:335 JLINK_ReadReg(R8)  returns 0x00000000 (0000ms, 0373ms total)
T4218 002:335 JLINK_ReadReg(R9)  returns 0x20000160 (0000ms, 0373ms total)
T4218 002:335 JLINK_ReadReg(R10)  returns 0x08000D34 (0000ms, 0373ms total)
T4218 002:335 JLINK_ReadReg(R11)  returns 0x00000000 (0000ms, 0373ms total)
T4218 002:335 JLINK_ReadReg(R12)  returns 0x00000C00 (0000ms, 0373ms total)
T4218 002:335 JLINK_ReadReg(R13 (SP))  returns 0x20000678 (0000ms, 0373ms total)
T4218 002:335 JLINK_ReadReg(R14)  returns 0xFFFFFFFF (0000ms, 0373ms total)
T4218 002:335 JLINK_ReadReg(R15 (PC))  returns 0x08000188 (0000ms, 0373ms total)
T4218 002:335 JLINK_ReadReg(XPSR)  returns 0x01000000 (0000ms, 0373ms total)
T4218 002:335 JLINK_ReadReg(MSP)  returns 0x20000678 (0000ms, 0373ms total)
T4218 002:335 JLINK_ReadReg(PSP)  returns 0x20001000 (0000ms, 0373ms total)
T4218 002:335 JLINK_ReadReg(CFBP)  returns 0x00000000 (0000ms, 0373ms total)
T76B4 002:416 JLINK_ReadMemEx(0x08000188, 0x0002 Bytes, ..., Flags = 0x02000000) -- Read from C cache (2 bytes @ 0x08000188) - Data: 09 48  returns 0x02 (0000ms, 0373ms total)
T76B4 002:416 JLINK_SetBPEx(Addr = 0x08000CF8, Type = 0xFFFFFFF2)  returns 0x00000001 (0000ms, 0373ms total)
T76B4 002:416 JLINK_SetBPEx(Addr = 0x0800039E, Type = 0xFFFFFFF2)  returns 0x00000002 (0000ms, 0373ms total)
T76B4 002:416 JLINK_Go() -- CPU_WriteMem(4 bytes @ 0xE0002000) -- CPU_WriteMem(4 bytes @ 0xE0002000) -- CPU_ReadMem(4 bytes @ 0xE0001000) -- CPU_WriteMem(4 bytes @ 0xE0002008) -- CPU_WriteMem(4 bytes @ 0xE000200C) -- CPU_WriteMem(4 bytes @ 0xE0002010) -- CPU_WriteMem(4 bytes @ 0xE0002014) -- CPU_WriteMem(4 bytes @ 0xE0002018) -- CPU_WriteMem(4 bytes @ 0xE000201C) -- CPU_WriteMem(4 bytes @ 0xE0001004) (0007ms, 0380ms total)
T76B4 002:523 JLINK_IsHalted()  returns TRUE (0003ms, 0383ms total)
T76B4 002:526 JLINK_Halt()  returns 0x00 (0000ms, 0380ms total)
T76B4 002:526 JLINK_IsHalted()  returns TRUE (0000ms, 0380ms total)
T76B4 002:526 JLINK_IsHalted()  returns TRUE (0000ms, 0380ms total)
T76B4 002:526 JLINK_IsHalted()  returns TRUE (0000ms, 0380ms total)
T76B4 002:526 JLINK_ReadReg(R15 (PC))  returns 0x08000CF8 (0000ms, 0380ms total)
T76B4 002:526 JLINK_ReadReg(XPSR)  returns 0x21000000 (0000ms, 0380ms total)
T76B4 002:526 JLINK_ClrBPEx(BPHandle = 0x00000001)  returns 0x00 (0000ms, 0380ms total)
T76B4 002:526 JLINK_ClrBPEx(BPHandle = 0x00000002)  returns 0x00 (0000ms, 0380ms total)
T76B4 002:526 JLINK_ReadMemU32(0xE000ED30, 0x0001 Items, ...) -- CPU_ReadMem(4 bytes @ 0xE000ED30) - Data: 03 00 00 00  returns 0x01 (0001ms, 0381ms total)
T76B4 002:527 JLINK_ReadMemU32(0xE0001028, 0x0001 Items, ...) -- CPU_ReadMem(4 bytes @ 0xE0001028) - Data: 00 00 00 00  returns 0x01 (0001ms, 0382ms total)
T76B4 002:528 JLINK_ReadMemU32(0xE0001038, 0x0001 Items, ...) -- CPU_ReadMem(4 bytes @ 0xE0001038) - Data: 00 02 00 00  returns 0x01 (0001ms, 0383ms total)
T76B4 002:530 JLINK_ReadMemU32(0xE0001048, 0x0001 Items, ...) -- CPU_ReadMem(4 bytes @ 0xE0001048) - Data: 00 00 00 00  returns 0x01 (0000ms, 0383ms total)
T76B4 002:530 JLINK_ReadMemU32(0xE0001058, 0x0001 Items, ...) -- CPU_ReadMem(4 bytes @ 0xE0001058) - Data: 00 00 00 00  returns 0x01 (0000ms, 0383ms total)
T76B4 002:530 JLINK_ReadReg(R0)  returns 0x20000078 (0000ms, 0383ms total)
T76B4 002:530 JLINK_ReadReg(R1)  returns 0x20000278 (0000ms, 0383ms total)
T76B4 002:530 JLINK_ReadReg(R2)  returns 0x20000278 (0000ms, 0383ms total)
T76B4 002:530 JLINK_ReadReg(R3)  returns 0x20000278 (0000ms, 0383ms total)
T76B4 002:530 JLINK_ReadReg(R4)  returns 0x00000000 (0000ms, 0383ms total)
T76B4 002:530 JLINK_ReadReg(R5)  returns 0x20000014 (0000ms, 0383ms total)
T76B4 002:530 JLINK_ReadReg(R6)  returns 0x00000000 (0000ms, 0383ms total)
T76B4 002:530 JLINK_ReadReg(R7)  returns 0x00000000 (0000ms, 0383ms total)
T76B4 002:530 JLINK_ReadReg(R8)  returns 0x00000000 (0000ms, 0383ms total)
T76B4 002:530 JLINK_ReadReg(R9)  returns 0x20000160 (0000ms, 0383ms total)
T76B4 002:530 JLINK_ReadReg(R10)  returns 0x08000D34 (0000ms, 0383ms total)
T76B4 002:530 JLINK_ReadReg(R11)  returns 0x00000000 (0000ms, 0383ms total)
T76B4 002:530 JLINK_ReadReg(R12)  returns 0x20000054 (0000ms, 0383ms total)
T76B4 002:530 JLINK_ReadReg(R13 (SP))  returns 0x20000678 (0000ms, 0383ms total)
T76B4 002:530 JLINK_ReadReg(R14)  returns 0x08000177 (0000ms, 0383ms total)
T76B4 002:530 JLINK_ReadReg(R15 (PC))  returns 0x08000CF8 (0000ms, 0383ms total)
T76B4 002:530 JLINK_ReadReg(XPSR)  returns 0x21000000 (0000ms, 0383ms total)
T76B4 002:530 JLINK_ReadReg(MSP)  returns 0x20000678 (0000ms, 0383ms total)
T76B4 002:530 JLINK_ReadReg(PSP)  returns 0x20001000 (0000ms, 0383ms total)
T76B4 002:530 JLINK_ReadReg(CFBP)  returns 0x00000000 (0000ms, 0383ms total)
T4218 002:535 JLINK_ReadMemEx(0x40010800, 0x000C Bytes, ..., Flags = 0x02000004) -- CPU_ReadMem(12 bytes @ 0x40010800) - Data: 44 44 44 44 44 44 84 88 00 00 00 00  returns 0x0C (0001ms, 0384ms total)
T4218 002:536 JLINK_ReadMemEx(0x40010800, 0x0004 Bytes, ..., Flags = 0x02000004) -- CPU_ReadMem(4 bytes @ 0x40010800) - Data: 44 44 44 44  returns 0x04 (0000ms, 0384ms total)
T4218 002:536 JLINK_ReadMemEx(0x40010804, 0x0004 Bytes, ..., Flags = 0x02000004) -- CPU_ReadMem(4 bytes @ 0x40010804) - Data: 44 44 84 88  returns 0x04 (0001ms, 0385ms total)
T4218 002:537 JLINK_ReadMemEx(0x40010808, 0x0004 Bytes, ..., Flags = 0x02000004) -- CPU_ReadMem(4 bytes @ 0x40010808) - Data: 00 00 00 00  returns 0x04 (0000ms, 0385ms total)
T4218 002:537 JLINK_ReadMemEx(0x4001080C, 0x0004 Bytes, ..., Flags = 0x02000004) -- CPU_ReadMem(4 bytes @ 0x4001080C) - Data: 00 A0 00 00  returns 0x04 (0001ms, 0386ms total)
T4218 002:538 JLINK_ReadMemEx(0x4001080C, 0x0004 Bytes, ..., Flags = 0x02000004) -- CPU_ReadMem(4 bytes @ 0x4001080C) - Data: 00 A0 00 00  returns 0x04 (0001ms, 0387ms total)
T4218 002:539 JLINK_ReadMemEx(0x40010818, 0x0004 Bytes, ..., Flags = 0x02000004) -- CPU_ReadMem(4 bytes @ 0x40010818) - Data: 00 00 00 00  returns 0x04 (0001ms, 0388ms total)
T4218 002:540 JLINK_ReadMemEx(0x40010818, 0x0004 Bytes, ..., Flags = 0x02000004) -- CPU_ReadMem(4 bytes @ 0x40010818) - Data: 00 00 00 00  returns 0x04 (0000ms, 0388ms total)
T4218 002:544 JLINK_ReadMemEx(0x08000BF8, 0x0008 Bytes, ..., Flags = 0x02000000) -- CPU_ReadMem(64 bytes @ 0x08000BC0) -- Updating C cache (64 bytes @ 0x08000BC0) -- Read from C cache (8 bytes @ 0x08000BF8) - Data: 01 D1 10 30 00 E0 14 30  returns 0x08 (0002ms, 0390ms total)
T4218 002:546 JLINK_ReadMemEx(0x08000C00, 0x0034 Bytes, ..., Flags = 0x02000000) -- CPU_ReadMem(64 bytes @ 0x08000C00) -- Updating C cache (64 bytes @ 0x08000C00) -- Read from C cache (52 bytes @ 0x08000C00) - Data: 1A B1 07 68 2F 43 07 60 02 E0 07 68 AF 43 07 60 ...  returns 0x34 (0001ms, 0391ms total)
T4218 002:547 JLINK_ReadMemEx(0x08000C34, 0x003C Bytes, ..., Flags = 0x02000000) -- CPU_ReadMem(64 bytes @ 0x08000C40) -- Updating C cache (64 bytes @ 0x08000C40) -- Read from C cache (60 bytes @ 0x08000C34) - Data: FF 70 04 40 F0 88 04 43 2C 82 AC 89 4E F6 F3 10 ...  returns 0x3C (0001ms, 0392ms total)
T4218 002:548 JLINK_ReadMemEx(0x08000C70, 0x003C Bytes, ..., Flags = 0x02000000) -- CPU_ReadMem(64 bytes @ 0x08000C80) -- Updating C cache (64 bytes @ 0x08000C80) -- Read from C cache (60 bytes @ 0x08000C70) - Data: 10 A0 01 E0 DD F8 0C A0 A8 89 00 F4 00 40 40 B1 ...  returns 0x3C (0002ms, 0394ms total)
T4218 002:550 JLINK_ReadMemEx(0x08000CAC, 0x003C Bytes, ..., Flags = 0x02000000) -- CPU_ReadMem(64 bytes @ 0x08000CC0) -- Updating C cache (64 bytes @ 0x08000CC0) -- Read from C cache (60 bytes @ 0x08000CAC) - Data: 64 21 01 FB 10 89 A8 89 00 F4 00 40 40 B1 32 20 ...  returns 0x3C (0001ms, 0395ms total)
T4218 002:551 JLINK_ReadMemEx(0x08000CEC, 0x003C Bytes, ..., Flags = 0x02000000) -- CPU_ReadMem(64 bytes @ 0x08000D00) -- Updating C cache (64 bytes @ 0x08000D00) -- Read from C cache (60 bytes @ 0x08000CEC) - Data: C1 F3 08 02 82 80 70 47 00 BF FE E7 FF F7 F2 FD ...  returns 0x3C (0001ms, 0396ms total)
T4218 005:945 JLINK_ReadMemEx(0x0800071E, 0x0002 Bytes, ..., Flags = 0x02000000) -- CPU_ReadMem(64 bytes @ 0x08000700) -- Updating C cache (64 bytes @ 0x08000700) -- Read from C cache (2 bytes @ 0x0800071E) - Data: BD E8  returns 0x02 (0003ms, 0399ms total)
T4218 005:948 JLINK_ReadMemEx(0x08000720, 0x003C Bytes, ..., Flags = 0x02000000) -- CPU_ReadMem(64 bytes @ 0x08000740) -- Updating C cache (64 bytes @ 0x08000740) -- Read from C cache (60 bytes @ 0x08000720) - Data: F0 81 30 46 FF F7 3E FF FF F7 B4 FF 01 28 01 D1 ...  returns 0x3C (0000ms, 0399ms total)
T4218 007:284 JLINK_ReadMemEx(0x0800039E, 0x0002 Bytes, ..., Flags = 0x02000000) -- CPU_ReadMem(64 bytes @ 0x08000380) -- Updating C cache (64 bytes @ 0x08000380) -- Read from C cache (2 bytes @ 0x0800039E) - Data: 02 23  returns 0x02 (0002ms, 0401ms total)
T4218 007:286 JLINK_ReadMemEx(0x080003A0, 0x003C Bytes, ..., Flags = 0x02000000) -- CPU_ReadMem(64 bytes @ 0x080003C0) -- Updating C cache (64 bytes @ 0x080003C0) -- Read from C cache (60 bytes @ 0x080003A0) - Data: 01 AA 6B 21 68 20 00 F0 A9 F9 04 23 6A 46 19 21 ...  returns 0x3C (0001ms, 0402ms total)
T76B4 014:365 JLINK_ReadMemEx(0x08000CF8, 0x0002 Bytes, ..., Flags = 0x02000000) -- Read from C cache (2 bytes @ 0x08000CF8) - Data: FF F7  returns 0x02 (0000ms, 0402ms total)
T76B4 014:365 JLINK_SetBPEx(Addr = 0x0800039E, Type = 0xFFFFFFF2)  returns 0x00000003 (0000ms, 0402ms total)
T76B4 014:365 JLINK_Go() -- CPU_WriteMem(4 bytes @ 0xE0002000) -- CPU_ReadMem(4 bytes @ 0xE0001000) -- CPU_WriteMem(4 bytes @ 0xE0002008) -- CPU_WriteMem(4 bytes @ 0xE000200C) (0005ms, 0407ms total)
T76B4 014:471 JLINK_IsHalted()  returns TRUE (0003ms, 0410ms total)
T76B4 014:474 JLINK_Halt()  returns 0x00 (0000ms, 0407ms total)
T76B4 014:474 JLINK_IsHalted()  returns TRUE (0000ms, 0407ms total)
T76B4 014:475 JLINK_IsHalted()  returns TRUE (0000ms, 0407ms total)
T76B4 014:475 JLINK_IsHalted()  returns TRUE (0000ms, 0407ms total)
T76B4 014:475 JLINK_ReadReg(R15 (PC))  returns 0x0800039E (0000ms, 0407ms total)
T76B4 014:475 JLINK_ReadReg(XPSR)  returns 0x01000000 (0000ms, 0407ms total)
T76B4 014:475 JLINK_ClrBPEx(BPHandle = 0x00000003)  returns 0x00 (0000ms, 0407ms total)
T76B4 014:475 JLINK_ReadMemU32(0xE000ED30, 0x0001 Items, ...) -- CPU_ReadMem(4 bytes @ 0xE000ED30) - Data: 03 00 00 00  returns 0x01 (0001ms, 0408ms total)
T76B4 014:476 JLINK_ReadMemU32(0xE0001028, 0x0001 Items, ...) -- CPU_ReadMem(4 bytes @ 0xE0001028) - Data: 00 00 00 00  returns 0x01 (0000ms, 0408ms total)
T76B4 014:476 JLINK_ReadMemU32(0xE0001038, 0x0001 Items, ...) -- CPU_ReadMem(4 bytes @ 0xE0001038) - Data: 00 02 00 00  returns 0x01 (0001ms, 0409ms total)
T76B4 014:477 JLINK_ReadMemU32(0xE0001048, 0x0001 Items, ...) -- CPU_ReadMem(4 bytes @ 0xE0001048) - Data: 00 00 00 00  returns 0x01 (0001ms, 0410ms total)
T76B4 014:478 JLINK_ReadMemU32(0xE0001058, 0x0001 Items, ...) -- CPU_ReadMem(4 bytes @ 0xE0001058) - Data: 00 00 00 00  returns 0x01 (0001ms, 0411ms total)
T76B4 014:479 JLINK_ReadReg(R0)  returns 0x18180609 (0000ms, 0411ms total)
T76B4 014:479 JLINK_ReadReg(R1)  returns 0x42218000 (0000ms, 0411ms total)
T76B4 014:479 JLINK_ReadReg(R2)  returns 0x40010C00 (0000ms, 0411ms total)
T76B4 014:479 JLINK_ReadReg(R3)  returns 0x10030C00 (0000ms, 0411ms total)
T76B4 014:479 JLINK_ReadReg(R4)  returns 0x00000000 (0000ms, 0411ms total)
T76B4 014:479 JLINK_ReadReg(R5)  returns 0x20000014 (0000ms, 0411ms total)
T76B4 014:479 JLINK_ReadReg(R6)  returns 0x00000000 (0000ms, 0411ms total)
T76B4 014:479 JLINK_ReadReg(R7)  returns 0x00000000 (0000ms, 0411ms total)
T76B4 014:479 JLINK_ReadReg(R8)  returns 0x00000000 (0000ms, 0411ms total)
T76B4 014:479 JLINK_ReadReg(R9)  returns 0x20000160 (0000ms, 0411ms total)
T76B4 014:479 JLINK_ReadReg(R10)  returns 0x08000D34 (0000ms, 0411ms total)
T76B4 014:479 JLINK_ReadReg(R11)  returns 0x00000000 (0000ms, 0411ms total)
T76B4 014:479 JLINK_ReadReg(R12)  returns 0x00000C00 (0000ms, 0411ms total)
T76B4 014:479 JLINK_ReadReg(R13 (SP))  returns 0x20000668 (0000ms, 0411ms total)
T76B4 014:479 JLINK_ReadReg(R14)  returns 0x08000D05 (0000ms, 0411ms total)
T76B4 014:479 JLINK_ReadReg(R15 (PC))  returns 0x0800039E (0000ms, 0411ms total)
T76B4 014:479 JLINK_ReadReg(XPSR)  returns 0x01000000 (0000ms, 0411ms total)
T76B4 014:479 JLINK_ReadReg(MSP)  returns 0x20000668 (0000ms, 0411ms total)
T76B4 014:479 JLINK_ReadReg(PSP)  returns 0x20001000 (0000ms, 0411ms total)
T76B4 014:479 JLINK_ReadReg(CFBP)  returns 0x00000000 (0000ms, 0411ms total)
T4218 014:480 JLINK_ReadMemEx(0x20000674, 0x0004 Bytes, ..., Flags = 0x02000000) -- CPU_ReadMem(64 bytes @ 0x20000640) -- Updating C cache (64 bytes @ 0x20000640) -- Read from C cache (4 bytes @ 0x20000674) - Data: 05 0D 00 08  returns 0x04 (0002ms, 0413ms total)
T4218 014:482 JLINK_ReadMemEx(0x20000670, 0x0004 Bytes, ..., Flags = 0x02000000) -- Read from C cache (4 bytes @ 0x20000670) - Data: 00 00 00 00  returns 0x04 (0000ms, 0413ms total)
T4218 014:482 JLINK_ReadMemEx(0x2000066C, 0x0002 Bytes, ..., Flags = 0x02000000) -- Read from C cache (2 bytes @ 0x2000066C) - Data: 01 00  returns 0x02 (0000ms, 0413ms total)
T4218 014:482 JLINK_ReadMemEx(0x20000668, 0x0004 Bytes, ..., Flags = 0x02000000) -- Read from C cache (4 bytes @ 0x20000668) - Data: 09 06 18 18  returns 0x04 (0000ms, 0413ms total)
T4218 014:517 JLINK_ReadMemEx(0x40010800, 0x000C Bytes, ..., Flags = 0x02000004) -- CPU_ReadMem(12 bytes @ 0x40010800) - Data: 44 44 44 44 B4 48 84 88 0F 9F 00 00  returns 0x0C (0001ms, 0414ms total)
T4218 014:518 JLINK_ReadMemEx(0x40010800, 0x0004 Bytes, ..., Flags = 0x02000004) -- CPU_ReadMem(4 bytes @ 0x40010800) - Data: 44 44 44 44  returns 0x04 (0000ms, 0414ms total)
T4218 014:518 JLINK_ReadMemEx(0x40010804, 0x0004 Bytes, ..., Flags = 0x02000004) -- CPU_ReadMem(4 bytes @ 0x40010804) - Data: B4 48 84 88  returns 0x04 (0001ms, 0415ms total)
T4218 014:519 JLINK_ReadMemEx(0x40010808, 0x0004 Bytes, ..., Flags = 0x02000004) -- CPU_ReadMem(4 bytes @ 0x40010808) - Data: 0C 9F 00 00  returns 0x04 (0001ms, 0416ms total)
T4218 014:520 JLINK_ReadMemEx(0x4001080C, 0x0004 Bytes, ..., Flags = 0x02000004) -- CPU_ReadMem(4 bytes @ 0x4001080C) - Data: 00 A4 00 00  returns 0x04 (0001ms, 0417ms total)
T4218 014:521 JLINK_ReadMemEx(0x4001080C, 0x0004 Bytes, ..., Flags = 0x02000004) -- CPU_ReadMem(4 bytes @ 0x4001080C) - Data: 00 A4 00 00  returns 0x04 (0001ms, 0418ms total)
T4218 014:522 JLINK_ReadMemEx(0x40010818, 0x0004 Bytes, ..., Flags = 0x02000004) -- CPU_ReadMem(4 bytes @ 0x40010818) - Data: 00 00 00 00  returns 0x04 (0001ms, 0419ms total)
T4218 014:523 JLINK_ReadMemEx(0x40010818, 0x0004 Bytes, ..., Flags = 0x02000004) -- CPU_ReadMem(4 bytes @ 0x40010818) - Data: 00 00 00 00  returns 0x04 (0000ms, 0419ms total)
T76B4 019:007 JLINK_ReadMemEx(0x0800039E, 0x0002 Bytes, ..., Flags = 0x02000000) -- CPU_ReadMem(64 bytes @ 0x08000380) -- Updating C cache (64 bytes @ 0x08000380) -- Read from C cache (2 bytes @ 0x0800039E) - Data: 02 23  returns 0x02 (0002ms, 0421ms total)
T76B4 019:009 JLINK_ReadMemEx(0x080003A0, 0x003C Bytes, ..., Flags = 0x02000000) -- CPU_ReadMem(64 bytes @ 0x080003C0) -- Updating C cache (64 bytes @ 0x080003C0) -- Read from C cache (60 bytes @ 0x080003A0) - Data: 01 AA 6B 21 68 20 00 F0 A9 F9 04 23 6A 46 19 21 ...  returns 0x3C (0002ms, 0423ms total)
T76B4 019:011 JLINK_ReadMemEx(0x0800039E, 0x0002 Bytes, ..., Flags = 0x02000000) -- Read from C cache (2 bytes @ 0x0800039E) - Data: 02 23  returns 0x02 (0000ms, 0423ms total)
T76B4 019:011 JLINK_Step() -- Read from C cache (2 bytes @ 0x0800039E) -- CPU_ReadMem(4 bytes @ 0xE000ED18) -- CPU_WriteMem(4 bytes @ 0xE000ED18) -- CPU_ReadMem(4 bytes @ 0xE000ED18) -- CPU_WriteMem(4 bytes @ 0xE000ED18) -- CPU_ReadMem(4 bytes @ 0xE0001004) -- Simulated  returns 0x00 (0005ms, 0428ms total)
T76B4 019:016 JLINK_ReadReg(R15 (PC))  returns 0x080003A0 (0000ms, 0428ms total)
T76B4 019:016 JLINK_ReadReg(XPSR)  returns 0x01000000 (0000ms, 0428ms total)
T76B4 019:016 JLINK_ReadMemEx(0x080003A0, 0x003C Bytes, ..., Flags = 0x02000000) -- Read from C cache (60 bytes @ 0x080003A0) - Data: 01 AA 6B 21 68 20 00 F0 A9 F9 04 23 6A 46 19 21 ...  returns 0x3C (0000ms, 0428ms total)
T76B4 019:016 JLINK_ReadMemEx(0x080003A0, 0x0002 Bytes, ..., Flags = 0x02000000) -- Read from C cache (2 bytes @ 0x080003A0) - Data: 01 AA  returns 0x02 (0000ms, 0428ms total)
T76B4 019:016 JLINK_ReadMemEx(0x080003A2, 0x0002 Bytes, ..., Flags = 0x02000000) -- Read from C cache (2 bytes @ 0x080003A2) - Data: 6B 21  returns 0x02 (0000ms, 0428ms total)
T76B4 019:016 JLINK_Step() -- Read from C cache (2 bytes @ 0x080003A0) -- Simulated  returns 0x00 (0000ms, 0428ms total)
T76B4 019:016 JLINK_ReadReg(R15 (PC))  returns 0x080003A2 (0000ms, 0428ms total)
T76B4 019:016 JLINK_ReadReg(XPSR)  returns 0x01000000 (0000ms, 0428ms total)
T76B4 019:016 JLINK_ReadMemEx(0x080003A2, 0x0002 Bytes, ..., Flags = 0x02000000) -- Read from C cache (2 bytes @ 0x080003A2) - Data: 6B 21  returns 0x02 (0000ms, 0428ms total)
T76B4 019:016 JLINK_ReadMemEx(0x080003A4, 0x003C Bytes, ..., Flags = 0x02000000) -- Read from C cache (60 bytes @ 0x080003A4) - Data: 68 20 00 F0 A9 F9 04 23 6A 46 19 21 68 20 00 F0 ...  returns 0x3C (0000ms, 0428ms total)
T76B4 019:016 JLINK_ReadMemEx(0x080003A4, 0x0002 Bytes, ..., Flags = 0x02000000) -- Read from C cache (2 bytes @ 0x080003A4) - Data: 68 20  returns 0x02 (0000ms, 0428ms total)
T76B4 019:016 JLINK_Step() -- Read from C cache (2 bytes @ 0x080003A2) -- Simulated  returns 0x00 (0000ms, 0428ms total)
T76B4 019:016 JLINK_ReadReg(R15 (PC))  returns 0x080003A4 (0001ms, 0429ms total)
T76B4 019:017 JLINK_ReadReg(XPSR)  returns 0x01000000 (0000ms, 0429ms total)
T76B4 019:017 JLINK_ReadMemEx(0x080003A4, 0x003C Bytes, ..., Flags = 0x02000000) -- Read from C cache (60 bytes @ 0x080003A4) - Data: 68 20 00 F0 A9 F9 04 23 6A 46 19 21 68 20 00 F0 ...  returns 0x3C (0000ms, 0429ms total)
T76B4 019:017 JLINK_ReadMemEx(0x080003A4, 0x0002 Bytes, ..., Flags = 0x02000000) -- Read from C cache (2 bytes @ 0x080003A4) - Data: 68 20  returns 0x02 (0000ms, 0429ms total)
T76B4 019:017 JLINK_ReadMemEx(0x080003A6, 0x0002 Bytes, ..., Flags = 0x02000000) -- Read from C cache (2 bytes @ 0x080003A6) - Data: 00 F0  returns 0x02 (0000ms, 0429ms total)
T76B4 019:017 JLINK_Step() -- Read from C cache (2 bytes @ 0x080003A4) -- Simulated  returns 0x00 (0000ms, 0429ms total)
T76B4 019:017 JLINK_ReadReg(R15 (PC))  returns 0x080003A6 (0000ms, 0429ms total)
T76B4 019:017 JLINK_ReadReg(XPSR)  returns 0x01000000 (0000ms, 0429ms total)
T76B4 019:017 JLINK_ReadMemEx(0x080003A6, 0x0002 Bytes, ..., Flags = 0x02000000) -- Read from C cache (2 bytes @ 0x080003A6) - Data: 00 F0  returns 0x02 (0000ms, 0429ms total)
T76B4 019:017 JLINK_ReadMemEx(0x080003A8, 0x003C Bytes, ..., Flags = 0x02000000) -- Read from C cache (60 bytes @ 0x080003A8) - Data: A9 F9 04 23 6A 46 19 21 68 20 00 F0 A3 F9 1C BD ...  returns 0x3C (0000ms, 0429ms total)
T76B4 019:017 JLINK_ReadMemEx(0x080003A8, 0x0002 Bytes, ..., Flags = 0x02000000) -- Read from C cache (2 bytes @ 0x080003A8) - Data: A9 F9  returns 0x02 (0000ms, 0429ms total)
T76B4 019:017 JLINK_Step() -- Read from C cache (2 bytes @ 0x080003A6) -- Read from C cache (2 bytes @ 0x080003A8) -- Simulated  returns 0x00 (0000ms, 0429ms total)
T76B4 019:017 JLINK_ReadReg(R15 (PC))  returns 0x080006FC (0000ms, 0429ms total)
T76B4 019:017 JLINK_ReadReg(XPSR)  returns 0x01000000 (0000ms, 0429ms total)
T76B4 019:017 JLINK_ReadReg(R0)  returns 0x00000068 (0000ms, 0429ms total)
T76B4 019:017 JLINK_ReadReg(R1)  returns 0x0000006B (0000ms, 0429ms total)
T76B4 019:017 JLINK_ReadReg(R2)  returns 0x2000066C (0000ms, 0429ms total)
T76B4 019:017 JLINK_ReadReg(R3)  returns 0x00000002 (0000ms, 0429ms total)
T76B4 019:017 JLINK_ReadReg(R4)  returns 0x00000000 (0000ms, 0429ms total)
T76B4 019:017 JLINK_ReadReg(R5)  returns 0x20000014 (0000ms, 0429ms total)
T76B4 019:017 JLINK_ReadReg(R6)  returns 0x00000000 (0000ms, 0429ms total)
T76B4 019:017 JLINK_ReadReg(R7)  returns 0x00000000 (0000ms, 0429ms total)
T76B4 019:017 JLINK_ReadReg(R8)  returns 0x00000000 (0000ms, 0429ms total)
T76B4 019:017 JLINK_ReadReg(R9)  returns 0x20000160 (0000ms, 0429ms total)
T76B4 019:017 JLINK_ReadReg(R10)  returns 0x08000D34 (0000ms, 0429ms total)
T76B4 019:017 JLINK_ReadReg(R11)  returns 0x00000000 (0000ms, 0429ms total)
T76B4 019:017 JLINK_ReadReg(R12)  returns 0x00000C00 (0000ms, 0429ms total)
T76B4 019:018 JLINK_ReadReg(R13 (SP))  returns 0x20000668 (0000ms, 0430ms total)
T76B4 019:018 JLINK_ReadReg(R14)  returns 0x080003AB (0000ms, 0430ms total)
T76B4 019:018 JLINK_ReadReg(R15 (PC))  returns 0x080006FC (0000ms, 0430ms total)
T76B4 019:018 JLINK_ReadReg(XPSR)  returns 0x01000000 (0000ms, 0430ms total)
T76B4 019:018 JLINK_ReadReg(MSP)  returns 0x20000668 (0000ms, 0430ms total)
T76B4 019:018 JLINK_ReadReg(PSP)  returns 0x20001000 (0000ms, 0430ms total)
T76B4 019:018 JLINK_ReadReg(CFBP)  returns 0x00000000 (0000ms, 0430ms total)
T4218 019:018 JLINK_ReadMemEx(0x20000674, 0x0004 Bytes, ..., Flags = 0x02000000) -- Read from C cache (4 bytes @ 0x20000674) - Data: 05 0D 00 08  returns 0x04 (0000ms, 0430ms total)
T4218 019:018 JLINK_ReadMemEx(0x20000670, 0x0004 Bytes, ..., Flags = 0x02000000) -- Read from C cache (4 bytes @ 0x20000670) - Data: 00 00 00 00  returns 0x04 (0000ms, 0430ms total)
T4218 019:019 JLINK_ReadMemEx(0x2000066C, 0x0020 Bytes, ..., Flags = 0x02000000) -- CPU_ReadMem(64 bytes @ 0x20000680) -- Updating C cache (64 bytes @ 0x20000680) -- Read from C cache (32 bytes @ 0x2000066C) - Data: 01 00 00 00 00 00 00 00 05 0D 00 08 AB E1 D3 D3 ...  returns 0x20 (0001ms, 0431ms total)
T4218 019:024 JLINK_ReadMemEx(0x20000668, 0x0004 Bytes, ..., Flags = 0x02000000) -- Read from C cache (4 bytes @ 0x20000668) - Data: 09 06 18 18  returns 0x04 (0000ms, 0431ms total)
T4218 019:062 JLINK_ReadMemEx(0x40010800, 0x000C Bytes, ..., Flags = 0x02000004) -- CPU_ReadMem(12 bytes @ 0x40010800) - Data: 44 44 44 44 B4 48 84 88 FC 9F 00 00  returns 0x0C (0002ms, 0433ms total)
T4218 019:064 JLINK_ReadMemEx(0x40010800, 0x0004 Bytes, ..., Flags = 0x02000004) -- CPU_ReadMem(4 bytes @ 0x40010800) - Data: 44 44 44 44  returns 0x04 (0001ms, 0434ms total)
T4218 019:065 JLINK_ReadMemEx(0x40010804, 0x0004 Bytes, ..., Flags = 0x02000004) -- CPU_ReadMem(4 bytes @ 0x40010804) - Data: B4 48 84 88  returns 0x04 (0000ms, 0434ms total)
T4218 019:065 JLINK_ReadMemEx(0x40010808, 0x0004 Bytes, ..., Flags = 0x02000004) -- CPU_ReadMem(4 bytes @ 0x40010808) - Data: FF 9F 00 00  returns 0x04 (0001ms, 0435ms total)
T4218 019:066 JLINK_ReadMemEx(0x4001080C, 0x0004 Bytes, ..., Flags = 0x02000004) -- CPU_ReadMem(4 bytes @ 0x4001080C) - Data: 00 A4 00 00  returns 0x04 (0001ms, 0436ms total)
T4218 019:067 JLINK_ReadMemEx(0x4001080C, 0x0004 Bytes, ..., Flags = 0x02000004) -- CPU_ReadMem(4 bytes @ 0x4001080C) - Data: 00 A4 00 00  returns 0x04 (0001ms, 0437ms total)
T4218 019:068 JLINK_ReadMemEx(0x40010818, 0x0004 Bytes, ..., Flags = 0x02000004) -- CPU_ReadMem(4 bytes @ 0x40010818) - Data: 00 00 00 00  returns 0x04 (0001ms, 0438ms total)
T4218 019:069 JLINK_ReadMemEx(0x40010818, 0x0004 Bytes, ..., Flags = 0x02000004) -- CPU_ReadMem(4 bytes @ 0x40010818) - Data: 00 00 00 00  returns 0x04 (0001ms, 0439ms total)
T4218 019:079 JLINK_ReadMemEx(0x08000604, 0x003C Bytes, ..., Flags = 0x02000000) -- CPU_ReadMem(64 bytes @ 0x08000600) -- Updating C cache (64 bytes @ 0x08000600) -- Read from C cache (60 bytes @ 0x08000604) - Data: 10 B5 0F 48 00 68 20 F4 70 40 0D 49 08 60 08 46 ...  returns 0x3C (0002ms, 0441ms total)
T4218 019:081 JLINK_ReadMemEx(0x08000640, 0x003C Bytes, ..., Flags = 0x02000000) -- CPU_ReadMem(64 bytes @ 0x08000640) -- Updating C cache (64 bytes @ 0x08000640) -- Read from C cache (60 bytes @ 0x08000640) - Data: A8 01 10 BD 04 0C 01 40 AC 81 21 42 00 80 21 42 ...  returns 0x3C (0002ms, 0443ms total)
T4218 019:083 JLINK_ReadMemEx(0x0800067C, 0x003C Bytes, ..., Flags = 0x02000000) -- CPU_ReadMem(64 bytes @ 0x08000680) -- Updating C cache (64 bytes @ 0x08000680) -- Read from C cache (60 bytes @ 0x0800067C) - Data: 03 49 08 60 05 20 FF F7 E1 FD 10 BD 04 0C 01 40 ...  returns 0x3C (0001ms, 0444ms total)
T4218 019:084 JLINK_ReadMemEx(0x080006B8, 0x003C Bytes, ..., Flags = 0x02000000) -- CPU_ReadMem(64 bytes @ 0x080006C0) -- Updating C cache (64 bytes @ 0x080006C0) -- Read from C cache (60 bytes @ 0x080006B8) - Data: C7 FD 07 E0 60 1C C4 B2 32 2C 03 DD FF F7 C4 FF ...  returns 0x3C (0002ms, 0446ms total)
T4218 019:086 JLINK_ReadMemEx(0x080006FA, 0x0002 Bytes, ..., Flags = 0x02000000) -- Read from C cache (2 bytes @ 0x080006FA) - Data: 21 42  returns 0x02 (0000ms, 0446ms total)
T4218 019:086 JLINK_ReadMemEx(0x080006FC, 0x003C Bytes, ..., Flags = 0x02000000) -- CPU_ReadMem(64 bytes @ 0x08000700) -- Updating C cache (64 bytes @ 0x08000700) -- Read from C cache (60 bytes @ 0x080006FC) - Data: 2D E9 F0 41 05 46 0E 46 17 46 98 46 FF F7 7C FF ...  returns 0x3C (0001ms, 0447ms total)
T76B4 023:001 JLINK_ReadMemEx(0x080006FC, 0x0002 Bytes, ..., Flags = 0x02000000) -- Read from C cache (2 bytes @ 0x080006FC) - Data: 2D E9  returns 0x02 (0000ms, 0447ms total)
T76B4 023:001 JLINK_Step() -- Read from C cache (2 bytes @ 0x080006FC) -- Read from C cache (2 bytes @ 0x080006FE) -- Not simulated -- CPU_WriteMem(4 bytes @ 0xE0002008) -- CPU_WriteMem(4 bytes @ 0xE0001004)  returns 0x00 (0009ms, 0456ms total)
T76B4 023:010 JLINK_ReadReg(R15 (PC))  returns 0x08000700 (0000ms, 0456ms total)
T76B4 023:011 JLINK_ReadReg(XPSR)  returns 0x01000000 (0000ms, 0457ms total)
T76B4 023:011 JLINK_ReadMemEx(0x080006FE, 0x0002 Bytes, ..., Flags = 0x02000000) -- CPU_ReadMem(64 bytes @ 0x080006C0) -- Updating C cache (64 bytes @ 0x080006C0) -- Read from C cache (2 bytes @ 0x080006FE) - Data: F0 41  returns 0x02 (0001ms, 0458ms total)
T76B4 023:012 JLINK_ReadMemEx(0x08000700, 0x003C Bytes, ..., Flags = 0x02000000) -- CPU_ReadMem(64 bytes @ 0x08000700) -- Updating C cache (64 bytes @ 0x08000700) -- Read from C cache (60 bytes @ 0x08000700) - Data: 05 46 0E 46 17 46 98 46 FF F7 7C FF 69 06 08 0E ...  returns 0x3C (0002ms, 0460ms total)
T76B4 023:014 JLINK_ReadMemEx(0x08000700, 0x0002 Bytes, ..., Flags = 0x02000000) -- Read from C cache (2 bytes @ 0x08000700) - Data: 05 46  returns 0x02 (0000ms, 0460ms total)
T76B4 023:014 JLINK_Step() -- Read from C cache (2 bytes @ 0x08000700) -- CPU_ReadMem(4 bytes @ 0xE0001004) -- Simulated  returns 0x00 (0001ms, 0461ms total)
T76B4 023:015 JLINK_ReadReg(R15 (PC))  returns 0x08000702 (0000ms, 0461ms total)
T76B4 023:015 JLINK_ReadReg(XPSR)  returns 0x01000000 (0000ms, 0461ms total)
T76B4 023:015 JLINK_Step() -- Read from C cache (2 bytes @ 0x08000702) -- Simulated  returns 0x00 (0000ms, 0461ms total)
T76B4 023:015 JLINK_ReadReg(R15 (PC))  returns 0x08000704 (0000ms, 0461ms total)
T76B4 023:015 JLINK_ReadReg(XPSR)  returns 0x01000000 (0000ms, 0461ms total)
T76B4 023:015 JLINK_Step() -- Read from C cache (2 bytes @ 0x08000704) -- Simulated  returns 0x00 (0000ms, 0461ms total)
T76B4 023:015 JLINK_ReadReg(R15 (PC))  returns 0x08000706 (0000ms, 0461ms total)
T76B4 023:015 JLINK_ReadReg(XPSR)  returns 0x01000000 (0000ms, 0461ms total)
T76B4 023:015 JLINK_Step() -- Read from C cache (2 bytes @ 0x08000706) -- Simulated  returns 0x00 (0000ms, 0461ms total)
T76B4 023:015 JLINK_ReadReg(R15 (PC))  returns 0x08000708 (0000ms, 0461ms total)
T76B4 023:015 JLINK_ReadReg(XPSR)  returns 0x01000000 (0000ms, 0461ms total)
T76B4 023:016 JLINK_ReadReg(R0)  returns 0x00000068 (0000ms, 0461ms total)
T76B4 023:016 JLINK_ReadReg(R1)  returns 0x0000006B (0000ms, 0461ms total)
T76B4 023:016 JLINK_ReadReg(R2)  returns 0x2000066C (0000ms, 0461ms total)
T76B4 023:016 JLINK_ReadReg(R3)  returns 0x00000002 (0000ms, 0461ms total)
T76B4 023:016 JLINK_ReadReg(R4)  returns 0x00000000 (0000ms, 0461ms total)
T76B4 023:016 JLINK_ReadReg(R5)  returns 0x00000068 (0000ms, 0461ms total)
T76B4 023:016 JLINK_ReadReg(R6)  returns 0x0000006B (0000ms, 0461ms total)
T76B4 023:016 JLINK_ReadReg(R7)  returns 0x2000066C (0000ms, 0461ms total)
T76B4 023:016 JLINK_ReadReg(R8)  returns 0x00000002 (0000ms, 0461ms total)
T76B4 023:016 JLINK_ReadReg(R9)  returns 0x20000160 (0000ms, 0461ms total)
T76B4 023:016 JLINK_ReadReg(R10)  returns 0x08000D34 (0000ms, 0461ms total)
T76B4 023:016 JLINK_ReadReg(R11)  returns 0x00000000 (0000ms, 0461ms total)
T76B4 023:016 JLINK_ReadReg(R12)  returns 0x00000C00 (0000ms, 0461ms total)
T76B4 023:016 JLINK_ReadReg(R13 (SP))  returns 0x20000650 (0000ms, 0461ms total)
T76B4 023:016 JLINK_ReadReg(R14)  returns 0x080003AB (0000ms, 0461ms total)
T76B4 023:016 JLINK_ReadReg(R15 (PC))  returns 0x08000708 (0001ms, 0462ms total)
T76B4 023:017 JLINK_ReadReg(XPSR)  returns 0x01000000 (0000ms, 0462ms total)
T76B4 023:017 JLINK_ReadReg(MSP)  returns 0x20000650 (0000ms, 0462ms total)
T76B4 023:017 JLINK_ReadReg(PSP)  returns 0x20001000 (0000ms, 0462ms total)
T76B4 023:017 JLINK_ReadReg(CFBP)  returns 0x00000000 (0000ms, 0462ms total)
T4218 023:018 JLINK_ReadMemEx(0x20000664, 0x0004 Bytes, ..., Flags = 0x02000000) -- CPU_ReadMem(64 bytes @ 0x20000640) -- Updating C cache (64 bytes @ 0x20000640) -- Read from C cache (4 bytes @ 0x20000664) - Data: AB 03 00 08  returns 0x04 (0001ms, 0463ms total)
T4218 023:019 JLINK_ReadMemEx(0x20000650, 0x0004 Bytes, ..., Flags = 0x02000000) -- Read from C cache (4 bytes @ 0x20000650) - Data: 00 00 00 00  returns 0x04 (0000ms, 0463ms total)
T4218 023:019 JLINK_ReadMemEx(0x20000654, 0x0004 Bytes, ..., Flags = 0x02000000) -- Read from C cache (4 bytes @ 0x20000654) - Data: 14 00 00 20  returns 0x04 (0000ms, 0463ms total)
T4218 023:019 JLINK_ReadMemEx(0x20000658, 0x0004 Bytes, ..., Flags = 0x02000000) -- Read from C cache (4 bytes @ 0x20000658) - Data: 00 00 00 00  returns 0x04 (0000ms, 0463ms total)
T4218 023:019 JLINK_ReadMemEx(0x2000065C, 0x0004 Bytes, ..., Flags = 0x02000000) -- Read from C cache (4 bytes @ 0x2000065C) - Data: 00 00 00 00  returns 0x04 (0000ms, 0463ms total)
T4218 023:019 JLINK_ReadMemEx(0x20000660, 0x0004 Bytes, ..., Flags = 0x02000000) -- Read from C cache (4 bytes @ 0x20000660) - Data: 00 00 00 00  returns 0x04 (0000ms, 0463ms total)
T4218 023:020 JLINK_ReadMemEx(0x20000674, 0x0004 Bytes, ..., Flags = 0x02000000) -- Read from C cache (4 bytes @ 0x20000674) - Data: 05 0D 00 08  returns 0x04 (0000ms, 0463ms total)
T4218 023:020 JLINK_ReadMemEx(0x20000670, 0x0004 Bytes, ..., Flags = 0x02000000) -- Read from C cache (4 bytes @ 0x20000670) - Data: 00 00 00 00  returns 0x04 (0000ms, 0463ms total)
T4218 023:020 JLINK_ReadMemEx(0x2000066C, 0x0020 Bytes, ..., Flags = 0x02000000) -- CPU_ReadMem(64 bytes @ 0x20000680) -- Updating C cache (64 bytes @ 0x20000680) -- Read from C cache (32 bytes @ 0x2000066C) - Data: 01 00 00 00 00 00 00 00 05 0D 00 08 AB E1 D3 D3 ...  returns 0x20 (0001ms, 0464ms total)
T4218 023:021 JLINK_ReadMemEx(0x20000668, 0x0004 Bytes, ..., Flags = 0x02000000) -- Read from C cache (4 bytes @ 0x20000668) - Data: 09 06 18 18  returns 0x04 (0000ms, 0464ms total)
T4218 023:029 JLINK_ReadMemEx(0x40010800, 0x000C Bytes, ..., Flags = 0x02000004) -- CPU_ReadMem(12 bytes @ 0x40010800) - Data: 44 44 44 44 B4 48 84 88 0F 9F 00 00  returns 0x0C (0001ms, 0465ms total)
T4218 023:030 JLINK_ReadMemEx(0x40010800, 0x0004 Bytes, ..., Flags = 0x02000004) -- CPU_ReadMem(4 bytes @ 0x40010800) - Data: 44 44 44 44  returns 0x04 (0000ms, 0465ms total)
T4218 023:030 JLINK_ReadMemEx(0x40010804, 0x0004 Bytes, ..., Flags = 0x02000004) -- CPU_ReadMem(4 bytes @ 0x40010804) - Data: B4 48 84 88  returns 0x04 (0001ms, 0466ms total)
T4218 023:031 JLINK_ReadMemEx(0x40010808, 0x0004 Bytes, ..., Flags = 0x02000004) -- CPU_ReadMem(4 bytes @ 0x40010808) - Data: 0F 9F 00 00  returns 0x04 (0001ms, 0467ms total)
T4218 023:032 JLINK_ReadMemEx(0x4001080C, 0x0004 Bytes, ..., Flags = 0x02000004) -- CPU_ReadMem(4 bytes @ 0x4001080C) - Data: 00 A4 00 00  returns 0x04 (0001ms, 0468ms total)
T4218 023:033 JLINK_ReadMemEx(0x4001080C, 0x0004 Bytes, ..., Flags = 0x02000004) -- CPU_ReadMem(4 bytes @ 0x4001080C) - Data: 00 A4 00 00  returns 0x04 (0001ms, 0469ms total)
T4218 023:034 JLINK_ReadMemEx(0x40010818, 0x0004 Bytes, ..., Flags = 0x02000004) -- CPU_ReadMem(4 bytes @ 0x40010818) - Data: 00 00 00 00  returns 0x04 (0001ms, 0470ms total)
T4218 023:035 JLINK_ReadMemEx(0x40010818, 0x0004 Bytes, ..., Flags = 0x02000004) -- CPU_ReadMem(4 bytes @ 0x40010818) - Data: 00 00 00 00  returns 0x04 (0001ms, 0471ms total)
T4218 023:047 JLINK_ReadMemEx(0x080006FC, 0x003C Bytes, ..., Flags = 0x02000000) -- Read from C cache (60 bytes @ 0x080006FC) - Data: 2D E9 F0 41 05 46 0E 46 17 46 98 46 FF F7 7C FF ...  returns 0x3C (0000ms, 0471ms total)
T76B4 024:223 JLINK_ReadMemEx(0x08000708, 0x0002 Bytes, ..., Flags = 0x02000000) -- Read from C cache (2 bytes @ 0x08000708) - Data: FF F7  returns 0x02 (0001ms, 0472ms total)
T76B4 024:224 JLINK_SetBPEx(Addr = 0x0800070C, Type = 0xFFFFFFF2)  returns 0x00000004 (0000ms, 0472ms total)
T76B4 024:224 JLINK_SetBPEx(Addr = 0x0800039E, Type = 0xFFFFFFF2)  returns 0x00000005 (0000ms, 0472ms total)
T76B4 024:224 JLINK_Go() -- CPU_WriteMem(4 bytes @ 0xE0002000) -- CPU_WriteMem(4 bytes @ 0xE0002000) -- CPU_ReadMem(4 bytes @ 0xE0001000) -- CPU_WriteMem(4 bytes @ 0xE0002008) -- CPU_WriteMem(4 bytes @ 0xE000200C) -- CPU_WriteMem(4 bytes @ 0xE0001004) (0007ms, 0479ms total)
T76B4 024:333 JLINK_IsHalted()  returns TRUE (0004ms, 0483ms total)
T76B4 024:337 JLINK_Halt()  returns 0x00 (0000ms, 0479ms total)
T76B4 024:337 JLINK_IsHalted()  returns TRUE (0000ms, 0479ms total)
T76B4 024:337 JLINK_IsHalted()  returns TRUE (0000ms, 0479ms total)
T76B4 024:337 JLINK_IsHalted()  returns TRUE (0000ms, 0479ms total)
T76B4 024:337 JLINK_ReadReg(R15 (PC))  returns 0x0800070C (0000ms, 0479ms total)
T76B4 024:337 JLINK_ReadReg(XPSR)  returns 0x61000000 (0000ms, 0479ms total)
T76B4 024:337 JLINK_ClrBPEx(BPHandle = 0x00000004)  returns 0x00 (0000ms, 0479ms total)
T76B4 024:337 JLINK_ClrBPEx(BPHandle = 0x00000005)  returns 0x00 (0000ms, 0479ms total)
T76B4 024:337 JLINK_ReadMemU32(0xE000ED30, 0x0001 Items, ...) -- CPU_ReadMem(4 bytes @ 0xE000ED30) - Data: 03 00 00 00  returns 0x01 (0001ms, 0480ms total)
T76B4 024:338 JLINK_ReadMemU32(0xE0001028, 0x0001 Items, ...) -- CPU_ReadMem(4 bytes @ 0xE0001028) - Data: 00 00 00 00  returns 0x01 (0001ms, 0481ms total)
T76B4 024:339 JLINK_ReadMemU32(0xE0001038, 0x0001 Items, ...) -- CPU_ReadMem(4 bytes @ 0xE0001038) - Data: 00 02 00 00  returns 0x01 (0001ms, 0482ms total)
T76B4 024:340 JLINK_ReadMemU32(0xE0001048, 0x0001 Items, ...) -- CPU_ReadMem(4 bytes @ 0xE0001048) - Data: 00 00 00 00  returns 0x01 (0001ms, 0483ms total)
T76B4 024:341 JLINK_ReadMemU32(0xE0001058, 0x0001 Items, ...) -- CPU_ReadMem(4 bytes @ 0xE0001058) - Data: 00 00 00 00  returns 0x01 (0001ms, 0484ms total)
T76B4 024:342 JLINK_ReadReg(R0)  returns 0x00000000 (0000ms, 0484ms total)
T76B4 024:342 JLINK_ReadReg(R1)  returns 0x42218000 (0000ms, 0484ms total)
T76B4 024:342 JLINK_ReadReg(R2)  returns 0xE000E000 (0000ms, 0484ms total)
T76B4 024:342 JLINK_ReadReg(R3)  returns 0x00000002 (0000ms, 0484ms total)
T76B4 024:342 JLINK_ReadReg(R4)  returns 0x00000000 (0000ms, 0484ms total)
T76B4 024:343 JLINK_ReadReg(R5)  returns 0x00000068 (0000ms, 0484ms total)
T76B4 024:343 JLINK_ReadReg(R6)  returns 0x0000006B (0000ms, 0484ms total)
T76B4 024:343 JLINK_ReadReg(R7)  returns 0x2000066C (0000ms, 0484ms total)
T76B4 024:343 JLINK_ReadReg(R8)  returns 0x00000002 (0000ms, 0484ms total)
T76B4 024:343 JLINK_ReadReg(R9)  returns 0x20000160 (0000ms, 0484ms total)
T76B4 024:343 JLINK_ReadReg(R10)  returns 0x08000D34 (0000ms, 0484ms total)
T76B4 024:343 JLINK_ReadReg(R11)  returns 0x00000000 (0000ms, 0484ms total)
T76B4 024:343 JLINK_ReadReg(R12)  returns 0x00000C00 (0000ms, 0484ms total)
T76B4 024:343 JLINK_ReadReg(R13 (SP))  returns 0x20000650 (0000ms, 0484ms total)
T76B4 024:343 JLINK_ReadReg(R14)  returns 0x0800063B (0000ms, 0484ms total)
T76B4 024:343 JLINK_ReadReg(R15 (PC))  returns 0x0800070C (0000ms, 0484ms total)
T76B4 024:343 JLINK_ReadReg(XPSR)  returns 0x61000000 (0000ms, 0484ms total)
T76B4 024:343 JLINK_ReadReg(MSP)  returns 0x20000650 (0000ms, 0484ms total)
T76B4 024:343 JLINK_ReadReg(PSP)  returns 0x20001000 (0000ms, 0484ms total)
T76B4 024:343 JLINK_ReadReg(CFBP)  returns 0x00000000 (0000ms, 0484ms total)
T4218 024:343 JLINK_ReadMemEx(0x20000664, 0x0004 Bytes, ..., Flags = 0x02000000) -- CPU_ReadMem(64 bytes @ 0x20000640) -- Updating C cache (64 bytes @ 0x20000640) -- Read from C cache (4 bytes @ 0x20000664) - Data: AB 03 00 08  returns 0x04 (0002ms, 0486ms total)
T4218 024:345 JLINK_ReadMemEx(0x20000650, 0x0004 Bytes, ..., Flags = 0x02000000) -- Read from C cache (4 bytes @ 0x20000650) - Data: 00 00 00 00  returns 0x04 (0000ms, 0486ms total)
T4218 024:345 JLINK_ReadMemEx(0x20000654, 0x0004 Bytes, ..., Flags = 0x02000000) -- Read from C cache (4 bytes @ 0x20000654) - Data: 14 00 00 20  returns 0x04 (0000ms, 0486ms total)
T4218 024:345 JLINK_ReadMemEx(0x20000658, 0x0004 Bytes, ..., Flags = 0x02000000) -- Read from C cache (4 bytes @ 0x20000658) - Data: 00 00 00 00  returns 0x04 (0000ms, 0486ms total)
